# ** Warning: (vlib-34) Library already exists at "work".
# Errors: 0, Warnings: 1
# QuestaSim-64 vmap 2021.1 Lib Mapping Utility 2021.01 Jan 19 2021
# vmap work work 
# Modifying C:/Users/zyado/OneDrive/Desktop/Summer 2026/Hassan Khaled/AXI4_Project/Questa/Axi4.mpf
# QuestaSim-64 vlog 2021.1 Compiler 2021.01 Jan 19 2021
# Start time: 15:07:59 on Aug 14,2026
# vlog -reportprogress 300 C:/Users/zyado/OneDrive/Desktop/Summer 2026/Hassan Khaled/AXI4_Project/axi4_write_if.sv 
# -- Compiling interface axi4_write_if
# 
# Top level modules:
# 	--none--
# End time: 15:07:59 on Aug 14,2026, Elapsed time: 0:00:00
# Errors: 0, Warnings: 0
# QuestaSim-64 vlog 2021.1 Compiler 2021.01 Jan 19 2021
# Start time: 15:07:59 on Aug 14,2026
# vlog -reportprogress 300 C:/Users/zyado/OneDrive/Desktop/Summer 2026/Hassan Khaled/AXI4_Project/axi4_write_pkg.sv 
# -- Compiling package axi4_write_pkg
# 
# Top level modules:
# 	--none--
# End time: 15:07:59 on Aug 14,2026, Elapsed time: 0:00:00
# Errors: 0, Warnings: 0
# QuestaSim-64 vlog 2021.1 Compiler 2021.01 Jan 19 2021
# Start time: 15:07:59 on Aug 14,2026
# vlog -reportprogress 300 "+cover=sbceft" C:/Users/zyado/OneDrive/Desktop/Summer 2026/Hassan Khaled/AXI4_Project/axi4_memory.v 
# -- Compiling module axi4_memory
# 
# Top level modules:
# 	axi4_memory
# End time: 15:07:59 on Aug 14,2026, Elapsed time: 0:00:00
# Errors: 0, Warnings: 0
# QuestaSim-64 vlog 2021.1 Compiler 2021.01 Jan 19 2021
# Start time: 15:07:59 on Aug 14,2026
# vlog -reportprogress 300 "+cover=sbceft" C:/Users/zyado/OneDrive/Desktop/Summer 2026/Hassan Khaled/AXI4_Project/axi4.v 
# -- Compiling module axi4
# 
# Top level modules:
# 	axi4
# End time: 15:07:59 on Aug 14,2026, Elapsed time: 0:00:00
# Errors: 0, Warnings: 0
# QuestaSim-64 vlog 2021.1 Compiler 2021.01 Jan 19 2021
# Start time: 15:07:59 on Aug 14,2026
# vlog -reportprogress 300 C:/Users/zyado/OneDrive/Desktop/Summer 2026/Hassan Khaled/AXI4_Project/tb_top.sv 
# -- Compiling package tb_top_sv_unit
# -- Importing package axi4_write_pkg
# -- Compiling module tb_top
# 
# Top level modules:
# 	tb_top
# End time: 15:07:59 on Aug 14,2026, Elapsed time: 0:00:00
# Errors: 0, Warnings: 0
# QuestaSim-64 vopt 2021.1 Compiler 2021.01 Jan 19 2021
# Start time: 15:08:00 on Aug 14,2026
# vopt -reportprogress 300 "+acc" "+cover=sbceft" work.tb_top -o tb_top_opt 
# 
# Top level modules:
# 	tb_top
# 
# Analyzing design...
# -- Loading module tb_top
# -- Loading interface axi4_write_if
# -- Loading module axi4
# -- Loading module axi4_memory
# Incremental compilation check found 4 design-units (out of 7) may be reused.
# Optimizing 3 design-units (inlining 0/4 module instances):
# -- Optimizing package axi4_write_pkg(fast)
# -- Optimizing package tb_top_sv_unit(fast)
# -- Optimizing module tb_top(fast)
# Optimized design name is tb_top_opt
# End time: 15:08:01 on Aug 14,2026, Elapsed time: 0:00:01
# Errors: 0, Warnings: 0
# vsim -coverage -voptargs="+acc" tb_top_opt 
# Start time: 15:08:01 on Aug 14,2026
# Loading sv_std.std
# Loading work.axi4_write_if(fast)
# Loading work.axi4_write_pkg(fast)
# Loading work.tb_top_sv_unit(fast)
# Loading work.tb_top(fast)
# Loading work.axi4_write_if(fast__2)
# Loading work.axi4(fast)
# Loading work.axi4_memory(fast)
# ** Warning: (vsim-WLF-5000) WLF file currently in use: vsim.wlf
#           File in use by: zyado  Hostname: ZIADORABI  ProcessID: 12616
#           Attempting to use alternate WLF file "./wlftsmn2v1".
# ** Warning: (vsim-WLF-5001) Could not open WLF file: vsim.wlf
#           Using alternate file: ./wlftsmn2v1
# 
# ====================================================
# [ENV] Starting 200 write transactions
# ====================================================
# [ENV] txn 0: AWADDR=0x065c AWLEN=0 AWSIZE=2 mode=ADDR_NORMAL
# [SCOREBOARD] BRESP OK AWADDR=0x65c AWLEN=0 AWSIZE=2 mode=ADDR_NORMAL bresp=0
# [ENV] txn 1: AWADDR=0x0af4 AWLEN=1 AWSIZE=2 mode=ADDR_NORMAL
# [SCOREBOARD] BRESP OK AWADDR=0xaf4 AWLEN=1 AWSIZE=2 mode=ADDR_NORMAL bresp=0
# [ENV] txn 2: AWADDR=0x0bb8 AWLEN=7 AWSIZE=2 mode=ADDR_NORMAL
# [SCOREBOARD] BRESP OK AWADDR=0xbb8 AWLEN=7 AWSIZE=2 mode=ADDR_NORMAL bresp=0
# [ENV] txn 3: AWADDR=0x07e8 AWLEN=31 AWSIZE=2 mode=ADDR_NORMAL
# [SCOREBOARD] BRESP OK AWADDR=0x7e8 AWLEN=31 AWSIZE=2 mode=ADDR_NORMAL bresp=0
# [ENV] txn 4: AWADDR=0x0a6c AWLEN=255 AWSIZE=2 mode=ADDR_NORMAL
# [SCOREBOARD] BRESP OK AWADDR=0xa6c AWLEN=255 AWSIZE=2 mode=ADDR_NORMAL bresp=0
# [ENV] txn 5: AWADDR=0x0fb8 AWLEN=0 AWSIZE=2 mode=ADDR_NEAR_BOUNDARY
# [SCOREBOARD] BRESP OK AWADDR=0xfb8 AWLEN=0 AWSIZE=2 mode=ADDR_NEAR_BOUNDARY bresp=0
# [ENV] txn 6: AWADDR=0x0fe4 AWLEN=1 AWSIZE=2 mode=ADDR_NEAR_BOUNDARY
# [SCOREBOARD] BRESP OK AWADDR=0xfe4 AWLEN=1 AWSIZE=2 mode=ADDR_NEAR_BOUNDARY bresp=0
# [ENV] txn 7: AWADDR=0x0fd8 AWLEN=7 AWSIZE=2 mode=ADDR_NEAR_BOUNDARY
# [SCOREBOARD] BRESP OK AWADDR=0xfd8 AWLEN=7 AWSIZE=2 mode=ADDR_NEAR_BOUNDARY bresp=0
# [ENV] txn 8: AWADDR=0x1c9c AWLEN=0 AWSIZE=2 mode=ADDR_OUT_OF_RANGE
# [SCOREBOARD] BRESP OK AWADDR=0x1c9c AWLEN=0 AWSIZE=2 mode=ADDR_OUT_OF_RANGE bresp=10
# [ENV] txn 9: AWADDR=0x74e0 AWLEN=1 AWSIZE=2 mode=ADDR_OUT_OF_RANGE
# [SCOREBOARD] BRESP OK AWADDR=0x74e0 AWLEN=1 AWSIZE=2 mode=ADDR_OUT_OF_RANGE bresp=10
# [ENV] txn 10: AWADDR=0x4b9c AWLEN=7 AWSIZE=2 mode=ADDR_OUT_OF_RANGE
# [SCOREBOARD] BRESP OK AWADDR=0x4b9c AWLEN=7 AWSIZE=2 mode=ADDR_OUT_OF_RANGE bresp=10
# [ENV] txn 11: AWADDR=0x0b70 AWLEN=0 AWSIZE=0 mode=ADDR_NORMAL
# [SCOREBOARD] BRESP OK AWADDR=0xb70 AWLEN=0 AWSIZE=0 mode=ADDR_NORMAL bresp=10
# [ENV] txn 12: AWADDR=0x0210 AWLEN=1 AWSIZE=1 mode=ADDR_NORMAL
# [SCOREBOARD] BRESP OK AWADDR=0x210 AWLEN=1 AWSIZE=1 mode=ADDR_NORMAL bresp=10
# [ENV] txn 13: AWADDR=0x066c AWLEN=7 AWSIZE=3 mode=ADDR_NORMAL
# [SCOREBOARD] BRESP OK AWADDR=0x66c AWLEN=7 AWSIZE=3 mode=ADDR_NORMAL bresp=10
# [ENV] txn 14: AWADDR=0x0c5c AWLEN=31 AWSIZE=7 mode=ADDR_NORMAL
# [SCOREBOARD] BRESP OK AWADDR=0xc5c AWLEN=31 AWSIZE=7 mode=ADDR_NORMAL bresp=10
# [ENV] txn 15: AWADDR=0xb17d AWLEN=0 AWSIZE=2 mode=ADDR_UNALIGNED
# [SCOREBOARD] BRESP OK AWADDR=0xb17d AWLEN=0 AWSIZE=2 mode=ADDR_UNALIGNED bresp=10
# [ENV] txn 16: AWADDR=0x3c5b AWLEN=1 AWSIZE=2 mode=ADDR_UNALIGNED
# [SCOREBOARD] BRESP OK AWADDR=0x3c5b AWLEN=1 AWSIZE=2 mode=ADDR_UNALIGNED bresp=10
# [ENV] txn 17: AWADDR=0x3ed1 AWLEN=7 AWSIZE=2 mode=ADDR_UNALIGNED
# [SCOREBOARD] BRESP OK AWADDR=0x3ed1 AWLEN=7 AWSIZE=2 mode=ADDR_UNALIGNED bresp=10
# [ENV] txn 18: AWADDR=0x09c4 AWLEN=2 AWSIZE=2 mode=ADDR_NORMAL
# [SCOREBOARD] BRESP OK AWADDR=0x9c4 AWLEN=2 AWSIZE=2 mode=ADDR_NORMAL bresp=0
# [ENV] txn 19: AWADDR=0x0098 AWLEN=15 AWSIZE=2 mode=ADDR_NORMAL
# [SCOREBOARD] BRESP OK AWADDR=0x98 AWLEN=15 AWSIZE=2 mode=ADDR_NORMAL bresp=0
# [ENV] txn 20: AWADDR=0x0fbc AWLEN=2 AWSIZE=2 mode=ADDR_NEAR_BOUNDARY
# [SCOREBOARD] BRESP OK AWADDR=0xfbc AWLEN=2 AWSIZE=2 mode=ADDR_NEAR_BOUNDARY bresp=0
# [ENV] txn 21: AWADDR=0x0fa4 AWLEN=15 AWSIZE=2 mode=ADDR_NEAR_BOUNDARY
# [SCOREBOARD] BRESP OK AWADDR=0xfa4 AWLEN=15 AWSIZE=2 mode=ADDR_NEAR_BOUNDARY bresp=0
# [ENV] txn 22: AWADDR=0xa9b4 AWLEN=31 AWSIZE=2 mode=ADDR_OUT_OF_RANGE
# [SCOREBOARD] BRESP OK AWADDR=0xa9b4 AWLEN=31 AWSIZE=2 mode=ADDR_OUT_OF_RANGE bresp=10
# [ENV] txn 23: AWADDR=0x0a34 AWLEN=0 AWSIZE=0 mode=ADDR_NORMAL
# [SCOREBOARD] BRESP OK AWADDR=0xa34 AWLEN=0 AWSIZE=0 mode=ADDR_NORMAL bresp=10
# [ENV] txn 24: AWADDR=0x0440 AWLEN=0 AWSIZE=1 mode=ADDR_NORMAL
# [SCOREBOARD] BRESP OK AWADDR=0x440 AWLEN=0 AWSIZE=1 mode=ADDR_NORMAL bresp=10
# [ENV] txn 25: AWADDR=0x06bc AWLEN=0 AWSIZE=3 mode=ADDR_NORMAL
# [SCOREBOARD] BRESP OK AWADDR=0x6bc AWLEN=0 AWSIZE=3 mode=ADDR_NORMAL bresp=10
# [ENV] txn 26: AWADDR=0x0c40 AWLEN=0 AWSIZE=4 mode=ADDR_NORMAL
# [SCOREBOARD] BRESP OK AWADDR=0xc40 AWLEN=0 AWSIZE=4 mode=ADDR_NORMAL bresp=10
# [ENV] txn 27: AWADDR=0x0ae8 AWLEN=3 AWSIZE=2 mode=ADDR_NORMAL
# [SCOREBOARD] BRESP OK AWADDR=0xae8 AWLEN=3 AWSIZE=2 mode=ADDR_NORMAL bresp=0
# [ENV] txn 28: AWADDR=0x0b3c AWLEN=63 AWSIZE=2 mode=ADDR_NORMAL
# [SCOREBOARD] BRESP OK AWADDR=0xb3c AWLEN=63 AWSIZE=2 mode=ADDR_NORMAL bresp=0
# [ENV] txn 29: AWADDR=0x0ad4 AWLEN=127 AWSIZE=2 mode=ADDR_NORMAL
# [SCOREBOARD] BRESP OK AWADDR=0xad4 AWLEN=127 AWSIZE=2 mode=ADDR_NORMAL bresp=0
# [ENV] txn 30: AWADDR=0x00ab AWLEN=0 AWSIZE=2 mode=ADDR_UNALIGNED
# [SCOREBOARD] BRESP OK AWADDR=0xab AWLEN=0 AWSIZE=2 mode=ADDR_UNALIGNED bresp=0
# [ENV] txn 31: AWADDR=0x9244 AWLEN=255 AWSIZE=2 mode=ADDR_OUT_OF_RANGE
# [SCOREBOARD] BRESP OK AWADDR=0x9244 AWLEN=255 AWSIZE=2 mode=ADDR_OUT_OF_RANGE bresp=10
# [ENV] txn 32: AWADDR=0xa74d AWLEN=123 AWSIZE=2 mode=ADDR_UNALIGNED
# [SCOREBOARD] BRESP OK AWADDR=0xa74d AWLEN=123 AWSIZE=2 mode=ADDR_UNALIGNED bresp=10
# [ENV] txn 33: AWADDR=0x0fd4 AWLEN=102 AWSIZE=1 mode=ADDR_NEAR_BOUNDARY
# [SCOREBOARD] BRESP OK AWADDR=0xfd4 AWLEN=102 AWSIZE=1 mode=ADDR_NEAR_BOUNDARY bresp=10
# [ENV] txn 34: AWADDR=0x05ec AWLEN=28 AWSIZE=5 mode=ADDR_NORMAL
# [SCOREBOARD] BRESP OK AWADDR=0x5ec AWLEN=28 AWSIZE=5 mode=ADDR_NORMAL bresp=10
# [ENV] txn 35: AWADDR=0xb30e AWLEN=203 AWSIZE=2 mode=ADDR_UNALIGNED
# [SCOREBOARD] BRESP OK AWADDR=0xb30e AWLEN=203 AWSIZE=2 mode=ADDR_UNALIGNED bresp=10
# [ENV] txn 36: AWADDR=0x0610 AWLEN=240 AWSIZE=2 mode=ADDR_NORMAL
# [SCOREBOARD] BRESP OK AWADDR=0x610 AWLEN=240 AWSIZE=2 mode=ADDR_NORMAL bresp=0
# [ENV] txn 37: AWADDR=0x049c AWLEN=242 AWSIZE=2 mode=ADDR_NORMAL
# [SCOREBOARD] BRESP OK AWADDR=0x49c AWLEN=242 AWSIZE=2 mode=ADDR_NORMAL bresp=0
# [ENV] txn 38: AWADDR=0x0dbf AWLEN=245 AWSIZE=7 mode=ADDR_UNALIGNED
# [SCOREBOARD] BRESP OK AWADDR=0xdbf AWLEN=245 AWSIZE=7 mode=ADDR_UNALIGNED bresp=10
# [ENV] txn 39: AWADDR=0x06c8 AWLEN=6 AWSIZE=2 mode=ADDR_NORMAL
# [SCOREBOARD] BRESP OK AWADDR=0x6c8 AWLEN=6 AWSIZE=2 mode=ADDR_NORMAL bresp=0
# [ENV] txn 40: AWADDR=0x0fac AWLEN=1 AWSIZE=1 mode=ADDR_NEAR_BOUNDARY
# [SCOREBOARD] BRESP OK AWADDR=0xfac AWLEN=1 AWSIZE=1 mode=ADDR_NEAR_BOUNDARY bresp=10
# [ENV] txn 41: AWADDR=0x0b1c AWLEN=30 AWSIZE=2 mode=ADDR_NORMAL
# [SCOREBOARD] BRESP OK AWADDR=0xb1c AWLEN=30 AWSIZE=2 mode=ADDR_NORMAL bresp=0
# [ENV] txn 42: AWADDR=0xad48 AWLEN=231 AWSIZE=1 mode=ADDR_OUT_OF_RANGE
# [SCOREBOARD] BRESP OK AWADDR=0xad48 AWLEN=231 AWSIZE=1 mode=ADDR_OUT_OF_RANGE bresp=10
# [ENV] txn 43: AWADDR=0x0fbc AWLEN=227 AWSIZE=3 mode=ADDR_NEAR_BOUNDARY
# [SCOREBOARD] BRESP OK AWADDR=0xfbc AWLEN=227 AWSIZE=3 mode=ADDR_NEAR_BOUNDARY bresp=10
# [ENV] txn 44: AWADDR=0x0ff4 AWLEN=153 AWSIZE=6 mode=ADDR_NEAR_BOUNDARY
# [SCOREBOARD] BRESP OK AWADDR=0xff4 AWLEN=153 AWSIZE=6 mode=ADDR_NEAR_BOUNDARY bresp=10
# [ENV] txn 45: AWADDR=0x07d8 AWLEN=169 AWSIZE=1 mode=ADDR_NORMAL
# [SCOREBOARD] BRESP OK AWADDR=0x7d8 AWLEN=169 AWSIZE=1 mode=ADDR_NORMAL bresp=10
# [ENV] txn 46: AWADDR=0x9494 AWLEN=11 AWSIZE=5 mode=ADDR_OUT_OF_RANGE
# [SCOREBOARD] BRESP OK AWADDR=0x9494 AWLEN=11 AWSIZE=5 mode=ADDR_OUT_OF_RANGE bresp=10
# [ENV] txn 47: AWADDR=0x01d4 AWLEN=124 AWSIZE=2 mode=ADDR_NORMAL
# [SCOREBOARD] BRESP OK AWADDR=0x1d4 AWLEN=124 AWSIZE=2 mode=ADDR_NORMAL bresp=0
# [ENV] txn 48: AWADDR=0x0aa4 AWLEN=25 AWSIZE=2 mode=ADDR_NORMAL
# [SCOREBOARD] BRESP OK AWADDR=0xaa4 AWLEN=25 AWSIZE=2 mode=ADDR_NORMAL bresp=0
# [ENV] txn 49: AWADDR=0x0ee8 AWLEN=40 AWSIZE=2 mode=ADDR_NORMAL
# [SCOREBOARD] BRESP OK AWADDR=0xee8 AWLEN=40 AWSIZE=2 mode=ADDR_NORMAL bresp=0
# [ENV] txn 50: AWADDR=0x0490 AWLEN=92 AWSIZE=2 mode=ADDR_NORMAL
# [SCOREBOARD] BRESP OK AWADDR=0x490 AWLEN=92 AWSIZE=2 mode=ADDR_NORMAL bresp=0
# [ENV] txn 51: AWADDR=0x0de4 AWLEN=20 AWSIZE=2 mode=ADDR_NORMAL
# [SCOREBOARD] BRESP OK AWADDR=0xde4 AWLEN=20 AWSIZE=2 mode=ADDR_NORMAL bresp=0
# [ENV] txn 52: AWADDR=0x0fbc AWLEN=208 AWSIZE=2 mode=ADDR_NEAR_BOUNDARY
# [SCOREBOARD] BRESP OK AWADDR=0xfbc AWLEN=208 AWSIZE=2 mode=ADDR_NEAR_BOUNDARY bresp=10
# [ENV] txn 53: AWADDR=0x6d63 AWLEN=245 AWSIZE=2 mode=ADDR_UNALIGNED
# [SCOREBOARD] BRESP OK AWADDR=0x6d63 AWLEN=245 AWSIZE=2 mode=ADDR_UNALIGNED bresp=10
# [ENV] txn 54: AWADDR=0x0fe4 AWLEN=237 AWSIZE=2 mode=ADDR_NEAR_BOUNDARY
# [SCOREBOARD] BRESP OK AWADDR=0xfe4 AWLEN=237 AWSIZE=2 mode=ADDR_NEAR_BOUNDARY bresp=10
# [ENV] txn 55: AWADDR=0x0ffc AWLEN=106 AWSIZE=0 mode=ADDR_NEAR_BOUNDARY
# [SCOREBOARD] BRESP OK AWADDR=0xffc AWLEN=106 AWSIZE=0 mode=ADDR_NEAR_BOUNDARY bresp=10
# [ENV] txn 56: AWADDR=0x0a08 AWLEN=8 AWSIZE=4 mode=ADDR_NORMAL
# [SCOREBOARD] BRESP OK AWADDR=0xa08 AWLEN=8 AWSIZE=4 mode=ADDR_NORMAL bresp=10
# [ENV] txn 57: AWADDR=0x0cd0 AWLEN=7 AWSIZE=2 mode=ADDR_NORMAL
# [SCOREBOARD] BRESP OK AWADDR=0xcd0 AWLEN=7 AWSIZE=2 mode=ADDR_NORMAL bresp=0
# [ENV] txn 58: AWADDR=0x00d4 AWLEN=7 AWSIZE=3 mode=ADDR_NORMAL
# [SCOREBOARD] BRESP OK AWADDR=0xd4 AWLEN=7 AWSIZE=3 mode=ADDR_NORMAL bresp=10
# [ENV] txn 59: AWADDR=0xef42 AWLEN=13 AWSIZE=2 mode=ADDR_UNALIGNED
# [SCOREBOARD] BRESP OK AWADDR=0xef42 AWLEN=13 AWSIZE=2 mode=ADDR_UNALIGNED bresp=10
# [ENV] txn 60: AWADDR=0x04ac AWLEN=21 AWSIZE=7 mode=ADDR_NORMAL
# [SCOREBOARD] BRESP OK AWADDR=0x4ac AWLEN=21 AWSIZE=7 mode=ADDR_NORMAL bresp=10
# [ENV] txn 61: AWADDR=0xc9ae AWLEN=203 AWSIZE=2 mode=ADDR_UNALIGNED
# [SCOREBOARD] BRESP OK AWADDR=0xc9ae AWLEN=203 AWSIZE=2 mode=ADDR_UNALIGNED bresp=10
# [ENV] txn 62: AWADDR=0x0c44 AWLEN=163 AWSIZE=4 mode=ADDR_NORMAL
# [SCOREBOARD] BRESP OK AWADDR=0xc44 AWLEN=163 AWSIZE=4 mode=ADDR_NORMAL bresp=10
# [ENV] txn 63: AWADDR=0x0078 AWLEN=2 AWSIZE=1 mode=ADDR_NORMAL
# [SCOREBOARD] BRESP OK AWADDR=0x78 AWLEN=2 AWSIZE=1 mode=ADDR_NORMAL bresp=10
# [ENV] txn 64: AWADDR=0x04c0 AWLEN=117 AWSIZE=2 mode=ADDR_NORMAL
# [SCOREBOARD] BRESP OK AWADDR=0x4c0 AWLEN=117 AWSIZE=2 mode=ADDR_NORMAL bresp=0
# [ENV] txn 65: AWADDR=0xfa7d AWLEN=8 AWSIZE=2 mode=ADDR_UNALIGNED
# [SCOREBOARD] BRESP OK AWADDR=0xfa7d AWLEN=8 AWSIZE=2 mode=ADDR_UNALIGNED bresp=10
# [ENV] txn 66: AWADDR=0x0120 AWLEN=69 AWSIZE=2 mode=ADDR_NORMAL
# [SCOREBOARD] BRESP OK AWADDR=0x120 AWLEN=69 AWSIZE=2 mode=ADDR_NORMAL bresp=0
# [ENV] txn 67: AWADDR=0x0fe8 AWLEN=107 AWSIZE=2 mode=ADDR_NEAR_BOUNDARY
# [SCOREBOARD] BRESP OK AWADDR=0xfe8 AWLEN=107 AWSIZE=2 mode=ADDR_NEAR_BOUNDARY bresp=10
# [ENV] txn 68: AWADDR=0xa862 AWLEN=186 AWSIZE=2 mode=ADDR_UNALIGNED
# [SCOREBOARD] BRESP OK AWADDR=0xa862 AWLEN=186 AWSIZE=2 mode=ADDR_UNALIGNED bresp=10
# [ENV] txn 69: AWADDR=0x048c AWLEN=207 AWSIZE=2 mode=ADDR_NORMAL
# [SCOREBOARD] BRESP OK AWADDR=0x48c AWLEN=207 AWSIZE=2 mode=ADDR_NORMAL bresp=0
# [ENV] txn 70: AWADDR=0xe418 AWLEN=218 AWSIZE=0 mode=ADDR_OUT_OF_RANGE
# [SCOREBOARD] BRESP OK AWADDR=0xe418 AWLEN=218 AWSIZE=0 mode=ADDR_OUT_OF_RANGE bresp=10
# [ENV] txn 71: AWADDR=0x0fe0 AWLEN=57 AWSIZE=2 mode=ADDR_NEAR_BOUNDARY
# [SCOREBOARD] BRESP OK AWADDR=0xfe0 AWLEN=57 AWSIZE=2 mode=ADDR_NEAR_BOUNDARY bresp=10
# [ENV] txn 72: AWADDR=0x04a4 AWLEN=6 AWSIZE=1 mode=ADDR_NORMAL
# [SCOREBOARD] BRESP OK AWADDR=0x4a4 AWLEN=6 AWSIZE=1 mode=ADDR_NORMAL bresp=10
# [ENV] txn 73: AWADDR=0x0fd4 AWLEN=2 AWSIZE=2 mode=ADDR_NEAR_BOUNDARY
# [SCOREBOARD] BRESP OK AWADDR=0xfd4 AWLEN=2 AWSIZE=2 mode=ADDR_NEAR_BOUNDARY bresp=0
# [ENV] txn 74: AWADDR=0x0fac AWLEN=118 AWSIZE=5 mode=ADDR_NEAR_BOUNDARY
# [SCOREBOARD] BRESP OK AWADDR=0xfac AWLEN=118 AWSIZE=5 mode=ADDR_NEAR_BOUNDARY bresp=10
# [ENV] txn 75: AWADDR=0x0c78 AWLEN=137 AWSIZE=2 mode=ADDR_NORMAL
# [SCOREBOARD] BRESP OK AWADDR=0xc78 AWLEN=137 AWSIZE=2 mode=ADDR_NORMAL bresp=0
# [ENV] txn 76: AWADDR=0xcdcb AWLEN=6 AWSIZE=0 mode=ADDR_UNALIGNED
# [SCOREBOARD] BRESP OK AWADDR=0xcdcb AWLEN=6 AWSIZE=0 mode=ADDR_UNALIGNED bresp=10
# [ENV] txn 77: AWADDR=0xe000 AWLEN=220 AWSIZE=2 mode=ADDR_OUT_OF_RANGE
# [SCOREBOARD] BRESP OK AWADDR=0xe000 AWLEN=220 AWSIZE=2 mode=ADDR_OUT_OF_RANGE bresp=10
# [ENV] txn 78: AWADDR=0x0ffc AWLEN=84 AWSIZE=0 mode=ADDR_NEAR_BOUNDARY
# [SCOREBOARD] BRESP OK AWADDR=0xffc AWLEN=84 AWSIZE=0 mode=ADDR_NEAR_BOUNDARY bresp=10
# [ENV] txn 79: AWADDR=0x0fd4 AWLEN=104 AWSIZE=5 mode=ADDR_NEAR_BOUNDARY
# [SCOREBOARD] BRESP OK AWADDR=0xfd4 AWLEN=104 AWSIZE=5 mode=ADDR_NEAR_BOUNDARY bresp=10
# [ENV] txn 80: AWADDR=0x0fd8 AWLEN=174 AWSIZE=1 mode=ADDR_NEAR_BOUNDARY
# [SCOREBOARD] BRESP OK AWADDR=0xfd8 AWLEN=174 AWSIZE=1 mode=ADDR_NEAR_BOUNDARY bresp=10
# [ENV] txn 81: AWADDR=0x0e10 AWLEN=128 AWSIZE=2 mode=ADDR_NORMAL
# [SCOREBOARD] BRESP OK AWADDR=0xe10 AWLEN=128 AWSIZE=2 mode=ADDR_NORMAL bresp=10
# [ENV] txn 82: AWADDR=0x0b94 AWLEN=143 AWSIZE=2 mode=ADDR_NORMAL
# [SCOREBOARD] BRESP OK AWADDR=0xb94 AWLEN=143 AWSIZE=2 mode=ADDR_NORMAL bresp=0
# [ENV] txn 83: AWADDR=0x0824 AWLEN=123 AWSIZE=2 mode=ADDR_NORMAL
# [SCOREBOARD] BRESP OK AWADDR=0x824 AWLEN=123 AWSIZE=2 mode=ADDR_NORMAL bresp=0
# [ENV] txn 84: AWADDR=0x0034 AWLEN=209 AWSIZE=4 mode=ADDR_NORMAL
# [SCOREBOARD] BRESP OK AWADDR=0x34 AWLEN=209 AWSIZE=4 mode=ADDR_NORMAL bresp=10
# [ENV] txn 85: AWADDR=0x064c AWLEN=193 AWSIZE=5 mode=ADDR_NORMAL
# [SCOREBOARD] BRESP OK AWADDR=0x64c AWLEN=193 AWSIZE=5 mode=ADDR_NORMAL bresp=10
# [ENV] txn 86: AWADDR=0xbdea AWLEN=73 AWSIZE=4 mode=ADDR_UNALIGNED
# [SCOREBOARD] BRESP OK AWADDR=0xbdea AWLEN=73 AWSIZE=4 mode=ADDR_UNALIGNED bresp=10
# [ENV] txn 87: AWADDR=0x0fcc AWLEN=82 AWSIZE=2 mode=ADDR_NEAR_BOUNDARY
# [SCOREBOARD] BRESP OK AWADDR=0xfcc AWLEN=82 AWSIZE=2 mode=ADDR_NEAR_BOUNDARY bresp=10
# [ENV] txn 88: AWADDR=0x0fac AWLEN=24 AWSIZE=5 mode=ADDR_NEAR_BOUNDARY
# [SCOREBOARD] BRESP OK AWADDR=0xfac AWLEN=24 AWSIZE=5 mode=ADDR_NEAR_BOUNDARY bresp=10
# [ENV] txn 89: AWADDR=0x3529 AWLEN=22 AWSIZE=2 mode=ADDR_UNALIGNED
# [SCOREBOARD] BRESP OK AWADDR=0x3529 AWLEN=22 AWSIZE=2 mode=ADDR_UNALIGNED bresp=10
# [ENV] txn 90: AWADDR=0x20c8 AWLEN=26 AWSIZE=1 mode=ADDR_OUT_OF_RANGE
# [SCOREBOARD] BRESP OK AWADDR=0x20c8 AWLEN=26 AWSIZE=1 mode=ADDR_OUT_OF_RANGE bresp=10
# [ENV] txn 91: AWADDR=0x00e8 AWLEN=164 AWSIZE=0 mode=ADDR_NORMAL
# [SCOREBOARD] BRESP OK AWADDR=0xe8 AWLEN=164 AWSIZE=0 mode=ADDR_NORMAL bresp=10
# [ENV] txn 92: AWADDR=0x0c28 AWLEN=240 AWSIZE=7 mode=ADDR_NORMAL
# [SCOREBOARD] BRESP OK AWADDR=0xc28 AWLEN=240 AWSIZE=7 mode=ADDR_NORMAL bresp=10
# [ENV] txn 93: AWADDR=0x032c AWLEN=78 AWSIZE=2 mode=ADDR_NORMAL
# [SCOREBOARD] BRESP OK AWADDR=0x32c AWLEN=78 AWSIZE=2 mode=ADDR_NORMAL bresp=0
# [ENV] txn 94: AWADDR=0x0214 AWLEN=5 AWSIZE=3 mode=ADDR_NORMAL
# [SCOREBOARD] BRESP OK AWADDR=0x214 AWLEN=5 AWSIZE=3 mode=ADDR_NORMAL bresp=10
# [ENV] txn 95: AWADDR=0x087c AWLEN=176 AWSIZE=2 mode=ADDR_NORMAL
# [SCOREBOARD] BRESP OK AWADDR=0x87c AWLEN=176 AWSIZE=2 mode=ADDR_NORMAL bresp=0
# [ENV] txn 96: AWADDR=0x0248 AWLEN=2 AWSIZE=2 mode=ADDR_NORMAL
# [SCOREBOARD] BRESP OK AWADDR=0x248 AWLEN=2 AWSIZE=2 mode=ADDR_NORMAL bresp=0
# [ENV] txn 97: AWADDR=0x0fc8 AWLEN=243 AWSIZE=3 mode=ADDR_NEAR_BOUNDARY
# [SCOREBOARD] BRESP OK AWADDR=0xfc8 AWLEN=243 AWSIZE=3 mode=ADDR_NEAR_BOUNDARY bresp=10
# [ENV] txn 98: AWADDR=0x0ffc AWLEN=96 AWSIZE=2 mode=ADDR_NEAR_BOUNDARY
# [SCOREBOARD] BRESP OK AWADDR=0xffc AWLEN=96 AWSIZE=2 mode=ADDR_NEAR_BOUNDARY bresp=10
# [ENV] txn 99: AWADDR=0xa7e8 AWLEN=82 AWSIZE=4 mode=ADDR_OUT_OF_RANGE
# [SCOREBOARD] BRESP OK AWADDR=0xa7e8 AWLEN=82 AWSIZE=4 mode=ADDR_OUT_OF_RANGE bresp=10
# [ENV] txn 100: AWADDR=0x0ff0 AWLEN=90 AWSIZE=2 mode=ADDR_NEAR_BOUNDARY
# [SCOREBOARD] BRESP OK AWADDR=0xff0 AWLEN=90 AWSIZE=2 mode=ADDR_NEAR_BOUNDARY bresp=10
# [ENV] txn 101: AWADDR=0x0ffc AWLEN=30 AWSIZE=0 mode=ADDR_NEAR_BOUNDARY
# [SCOREBOARD] BRESP OK AWADDR=0xffc AWLEN=30 AWSIZE=0 mode=ADDR_NEAR_BOUNDARY bresp=10
# [ENV] txn 102: AWADDR=0x0fbc AWLEN=126 AWSIZE=2 mode=ADDR_NEAR_BOUNDARY
# [SCOREBOARD] BRESP OK AWADDR=0xfbc AWLEN=126 AWSIZE=2 mode=ADDR_NEAR_BOUNDARY bresp=10
# [ENV] txn 103: AWADDR=0x0fcc AWLEN=67 AWSIZE=4 mode=ADDR_NEAR_BOUNDARY
# [SCOREBOARD] BRESP OK AWADDR=0xfcc AWLEN=67 AWSIZE=4 mode=ADDR_NEAR_BOUNDARY bresp=10
# [ENV] txn 104: AWADDR=0x2338 AWLEN=19 AWSIZE=6 mode=ADDR_OUT_OF_RANGE
# [SCOREBOARD] BRESP OK AWADDR=0x2338 AWLEN=19 AWSIZE=6 mode=ADDR_OUT_OF_RANGE bresp=10
# [ENV] txn 105: AWADDR=0x0544 AWLEN=27 AWSIZE=2 mode=ADDR_NORMAL
# [SCOREBOARD] BRESP OK AWADDR=0x544 AWLEN=27 AWSIZE=2 mode=ADDR_NORMAL bresp=0
# [ENV] txn 106: AWADDR=0x091c AWLEN=67 AWSIZE=2 mode=ADDR_NORMAL
# [SCOREBOARD] BRESP OK AWADDR=0x91c AWLEN=67 AWSIZE=2 mode=ADDR_NORMAL bresp=0
# [ENV] txn 107: AWADDR=0x9cb6 AWLEN=207 AWSIZE=2 mode=ADDR_UNALIGNED
# [SCOREBOARD] BRESP OK AWADDR=0x9cb6 AWLEN=207 AWSIZE=2 mode=ADDR_UNALIGNED bresp=10
# [ENV] txn 108: AWADDR=0x00a0 AWLEN=28 AWSIZE=2 mode=ADDR_NORMAL
# [SCOREBOARD] BRESP OK AWADDR=0xa0 AWLEN=28 AWSIZE=2 mode=ADDR_NORMAL bresp=0
# [ENV] txn 109: AWADDR=0x0ffc AWLEN=86 AWSIZE=2 mode=ADDR_NEAR_BOUNDARY
# [SCOREBOARD] BRESP OK AWADDR=0xffc AWLEN=86 AWSIZE=2 mode=ADDR_NEAR_BOUNDARY bresp=10
# [ENV] txn 110: AWADDR=0x0dc8 AWLEN=225 AWSIZE=4 mode=ADDR_NORMAL
# [SCOREBOARD] BRESP OK AWADDR=0xdc8 AWLEN=225 AWSIZE=4 mode=ADDR_NORMAL bresp=10
# [ENV] txn 111: AWADDR=0x03ac AWLEN=74 AWSIZE=2 mode=ADDR_NORMAL
# [SCOREBOARD] BRESP OK AWADDR=0x3ac AWLEN=74 AWSIZE=2 mode=ADDR_NORMAL bresp=0
# [ENV] txn 112: AWADDR=0x07ec AWLEN=174 AWSIZE=6 mode=ADDR_NORMAL
# [SCOREBOARD] BRESP OK AWADDR=0x7ec AWLEN=174 AWSIZE=6 mode=ADDR_NORMAL bresp=10
# [ENV] txn 113: AWADDR=0x0c94 AWLEN=64 AWSIZE=5 mode=ADDR_NORMAL
# [SCOREBOARD] BRESP OK AWADDR=0xc94 AWLEN=64 AWSIZE=5 mode=ADDR_NORMAL bresp=10
# [ENV] txn 114: AWADDR=0x051c AWLEN=92 AWSIZE=1 mode=ADDR_NORMAL
# [SCOREBOARD] BRESP OK AWADDR=0x51c AWLEN=92 AWSIZE=1 mode=ADDR_NORMAL bresp=10
# [ENV] txn 115: AWADDR=0x0fb8 AWLEN=70 AWSIZE=2 mode=ADDR_NEAR_BOUNDARY
# [SCOREBOARD] BRESP OK AWADDR=0xfb8 AWLEN=70 AWSIZE=2 mode=ADDR_NEAR_BOUNDARY bresp=10
# [ENV] txn 116: AWADDR=0x0ff0 AWLEN=9 AWSIZE=1 mode=ADDR_NEAR_BOUNDARY
# [SCOREBOARD] BRESP OK AWADDR=0xff0 AWLEN=9 AWSIZE=1 mode=ADDR_NEAR_BOUNDARY bresp=10
# [ENV] txn 117: AWADDR=0x0fc0 AWLEN=24 AWSIZE=0 mode=ADDR_NEAR_BOUNDARY
# [SCOREBOARD] BRESP OK AWADDR=0xfc0 AWLEN=24 AWSIZE=0 mode=ADDR_NEAR_BOUNDARY bresp=10
# [ENV] txn 118: AWADDR=0x0fd8 AWLEN=153 AWSIZE=6 mode=ADDR_NEAR_BOUNDARY
# [SCOREBOARD] BRESP OK AWADDR=0xfd8 AWLEN=153 AWSIZE=6 mode=ADDR_NEAR_BOUNDARY bresp=10
# [ENV] txn 119: AWADDR=0x0fbc AWLEN=158 AWSIZE=1 mode=ADDR_NEAR_BOUNDARY
# [SCOREBOARD] BRESP OK AWADDR=0xfbc AWLEN=158 AWSIZE=1 mode=ADDR_NEAR_BOUNDARY bresp=10
# [ENV] txn 120: AWADDR=0x02d0 AWLEN=21 AWSIZE=2 mode=ADDR_NORMAL
# [SCOREBOARD] BRESP OK AWADDR=0x2d0 AWLEN=21 AWSIZE=2 mode=ADDR_NORMAL bresp=0
# [ENV] txn 121: AWADDR=0xb534 AWLEN=243 AWSIZE=4 mode=ADDR_OUT_OF_RANGE
# [SCOREBOARD] BRESP OK AWADDR=0xb534 AWLEN=243 AWSIZE=4 mode=ADDR_OUT_OF_RANGE bresp=10
# [ENV] txn 122: AWADDR=0x0dac AWLEN=146 AWSIZE=2 mode=ADDR_NORMAL
# [SCOREBOARD] BRESP OK AWADDR=0xdac AWLEN=146 AWSIZE=2 mode=ADDR_NORMAL bresp=0
# [ENV] txn 123: AWADDR=0x5a5c AWLEN=28 AWSIZE=2 mode=ADDR_OUT_OF_RANGE
# [SCOREBOARD] BRESP OK AWADDR=0x5a5c AWLEN=28 AWSIZE=2 mode=ADDR_OUT_OF_RANGE bresp=10
# [ENV] txn 124: AWADDR=0x073c AWLEN=201 AWSIZE=2 mode=ADDR_NORMAL
# [SCOREBOARD] BRESP OK AWADDR=0x73c AWLEN=201 AWSIZE=2 mode=ADDR_NORMAL bresp=0
# [ENV] txn 125: AWADDR=0x0258 AWLEN=27 AWSIZE=5 mode=ADDR_NORMAL
# [SCOREBOARD] BRESP OK AWADDR=0x258 AWLEN=27 AWSIZE=5 mode=ADDR_NORMAL bresp=10
# [ENV] txn 126: AWADDR=0x3353 AWLEN=17 AWSIZE=5 mode=ADDR_UNALIGNED
# [SCOREBOARD] BRESP OK AWADDR=0x3353 AWLEN=17 AWSIZE=5 mode=ADDR_UNALIGNED bresp=10
# [ENV] txn 127: AWADDR=0x0fe4 AWLEN=20 AWSIZE=2 mode=ADDR_NEAR_BOUNDARY
# [SCOREBOARD] BRESP OK AWADDR=0xfe4 AWLEN=20 AWSIZE=2 mode=ADDR_NEAR_BOUNDARY bresp=10
# [ENV] txn 128: AWADDR=0x0514 AWLEN=167 AWSIZE=2 mode=ADDR_NORMAL
# [SCOREBOARD] BRESP OK AWADDR=0x514 AWLEN=167 AWSIZE=2 mode=ADDR_NORMAL bresp=0
# [ENV] txn 129: AWADDR=0xbbc3 AWLEN=119 AWSIZE=2 mode=ADDR_UNALIGNED
# [SCOREBOARD] BRESP OK AWADDR=0xbbc3 AWLEN=119 AWSIZE=2 mode=ADDR_UNALIGNED bresp=10
# [ENV] txn 130: AWADDR=0x8690 AWLEN=170 AWSIZE=2 mode=ADDR_OUT_OF_RANGE
# [SCOREBOARD] BRESP OK AWADDR=0x8690 AWLEN=170 AWSIZE=2 mode=ADDR_OUT_OF_RANGE bresp=10
# [ENV] txn 131: AWADDR=0x0ffc AWLEN=14 AWSIZE=7 mode=ADDR_NEAR_BOUNDARY
# [SCOREBOARD] BRESP OK AWADDR=0xffc AWLEN=14 AWSIZE=7 mode=ADDR_NEAR_BOUNDARY bresp=10
# [ENV] txn 132: AWADDR=0x0fa4 AWLEN=141 AWSIZE=2 mode=ADDR_NEAR_BOUNDARY
# [SCOREBOARD] BRESP OK AWADDR=0xfa4 AWLEN=141 AWSIZE=2 mode=ADDR_NEAR_BOUNDARY bresp=10
# [ENV] txn 133: AWADDR=0x0608 AWLEN=25 AWSIZE=2 mode=ADDR_NORMAL
# [SCOREBOARD] BRESP OK AWADDR=0x608 AWLEN=25 AWSIZE=2 mode=ADDR_NORMAL bresp=0
# [ENV] txn 134: AWADDR=0x06cc AWLEN=20 AWSIZE=2 mode=ADDR_NORMAL
# [SCOREBOARD] BRESP OK AWADDR=0x6cc AWLEN=20 AWSIZE=2 mode=ADDR_NORMAL bresp=0
# [ENV] txn 135: AWADDR=0x0fd4 AWLEN=250 AWSIZE=5 mode=ADDR_NEAR_BOUNDARY
# [SCOREBOARD] BRESP OK AWADDR=0xfd4 AWLEN=250 AWSIZE=5 mode=ADDR_NEAR_BOUNDARY bresp=10
# [ENV] txn 136: AWADDR=0x0fd0 AWLEN=103 AWSIZE=2 mode=ADDR_NEAR_BOUNDARY
# [SCOREBOARD] BRESP OK AWADDR=0xfd0 AWLEN=103 AWSIZE=2 mode=ADDR_NEAR_BOUNDARY bresp=10
# [ENV] txn 137: AWADDR=0x020c AWLEN=115 AWSIZE=2 mode=ADDR_NORMAL
# [SCOREBOARD] BRESP OK AWADDR=0x20c AWLEN=115 AWSIZE=2 mode=ADDR_NORMAL bresp=0
# [ENV] txn 138: AWADDR=0x0e14 AWLEN=22 AWSIZE=2 mode=ADDR_NORMAL
# [SCOREBOARD] BRESP OK AWADDR=0xe14 AWLEN=22 AWSIZE=2 mode=ADDR_NORMAL bresp=0
# [ENV] txn 139: AWADDR=0x0ff8 AWLEN=244 AWSIZE=0 mode=ADDR_NEAR_BOUNDARY
# [SCOREBOARD] BRESP OK AWADDR=0xff8 AWLEN=244 AWSIZE=0 mode=ADDR_NEAR_BOUNDARY bresp=10
# [ENV] txn 140: AWADDR=0x0ff8 AWLEN=19 AWSIZE=2 mode=ADDR_NEAR_BOUNDARY
# [SCOREBOARD] BRESP OK AWADDR=0xff8 AWLEN=19 AWSIZE=2 mode=ADDR_NEAR_BOUNDARY bresp=10
# [ENV] txn 141: AWADDR=0x0db8 AWLEN=102 AWSIZE=7 mode=ADDR_NORMAL
# [SCOREBOARD] BRESP OK AWADDR=0xdb8 AWLEN=102 AWSIZE=7 mode=ADDR_NORMAL bresp=10
# [ENV] txn 142: AWADDR=0x0540 AWLEN=0 AWSIZE=2 mode=ADDR_NORMAL
# [SCOREBOARD] BRESP OK AWADDR=0x540 AWLEN=0 AWSIZE=2 mode=ADDR_NORMAL bresp=0
# [ENV] txn 143: AWADDR=0x0fdc AWLEN=37 AWSIZE=2 mode=ADDR_NEAR_BOUNDARY
# [SCOREBOARD] BRESP OK AWADDR=0xfdc AWLEN=37 AWSIZE=2 mode=ADDR_NEAR_BOUNDARY bresp=10
# [ENV] txn 144: AWADDR=0x04fc AWLEN=45 AWSIZE=2 mode=ADDR_NORMAL
# [SCOREBOARD] BRESP OK AWADDR=0x4fc AWLEN=45 AWSIZE=2 mode=ADDR_NORMAL bresp=0
# [ENV] txn 145: AWADDR=0xeda0 AWLEN=175 AWSIZE=1 mode=ADDR_OUT_OF_RANGE
# [SCOREBOARD] BRESP OK AWADDR=0xeda0 AWLEN=175 AWSIZE=1 mode=ADDR_OUT_OF_RANGE bresp=10
# [ENV] txn 146: AWADDR=0x0718 AWLEN=179 AWSIZE=2 mode=ADDR_NORMAL
# [SCOREBOARD] BRESP OK AWADDR=0x718 AWLEN=179 AWSIZE=2 mode=ADDR_NORMAL bresp=0
# [ENV] txn 147: AWADDR=0x09e8 AWLEN=3 AWSIZE=2 mode=ADDR_NORMAL
# [SCOREBOARD] BRESP OK AWADDR=0x9e8 AWLEN=3 AWSIZE=2 mode=ADDR_NORMAL bresp=0
# [ENV] txn 148: AWADDR=0x0310 AWLEN=91 AWSIZE=2 mode=ADDR_NORMAL
# [SCOREBOARD] BRESP OK AWADDR=0x310 AWLEN=91 AWSIZE=2 mode=ADDR_NORMAL bresp=0
# [ENV] txn 149: AWADDR=0x5170 AWLEN=132 AWSIZE=7 mode=ADDR_OUT_OF_RANGE
# [SCOREBOARD] BRESP OK AWADDR=0x5170 AWLEN=132 AWSIZE=7 mode=ADDR_OUT_OF_RANGE bresp=10
# [ENV] txn 150: AWADDR=0x05a0 AWLEN=155 AWSIZE=3 mode=ADDR_NORMAL
# [SCOREBOARD] BRESP OK AWADDR=0x5a0 AWLEN=155 AWSIZE=3 mode=ADDR_NORMAL bresp=10
# [ENV] txn 151: AWADDR=0x0958 AWLEN=117 AWSIZE=2 mode=ADDR_NORMAL
# [SCOREBOARD] BRESP OK AWADDR=0x958 AWLEN=117 AWSIZE=2 mode=ADDR_NORMAL bresp=0
# [ENV] txn 152: AWADDR=0x0fac AWLEN=6 AWSIZE=0 mode=ADDR_NEAR_BOUNDARY
# [SCOREBOARD] BRESP OK AWADDR=0xfac AWLEN=6 AWSIZE=0 mode=ADDR_NEAR_BOUNDARY bresp=10
# [ENV] txn 153: AWADDR=0x0c34 AWLEN=110 AWSIZE=4 mode=ADDR_NORMAL
# [SCOREBOARD] BRESP OK AWADDR=0xc34 AWLEN=110 AWSIZE=4 mode=ADDR_NORMAL bresp=10
# [ENV] txn 154: AWADDR=0x0a94 AWLEN=67 AWSIZE=2 mode=ADDR_NORMAL
# [SCOREBOARD] BRESP OK AWADDR=0xa94 AWLEN=67 AWSIZE=2 mode=ADDR_NORMAL bresp=0
# [ENV] txn 155: AWADDR=0x04fc AWLEN=11 AWSIZE=2 mode=ADDR_NORMAL
# [SCOREBOARD] BRESP OK AWADDR=0x4fc AWLEN=11 AWSIZE=2 mode=ADDR_NORMAL bresp=0
# [ENV] txn 156: AWADDR=0x4b38 AWLEN=16 AWSIZE=2 mode=ADDR_OUT_OF_RANGE
# [SCOREBOARD] BRESP OK AWADDR=0x4b38 AWLEN=16 AWSIZE=2 mode=ADDR_OUT_OF_RANGE bresp=10
# [ENV] txn 157: AWADDR=0x95a0 AWLEN=238 AWSIZE=2 mode=ADDR_OUT_OF_RANGE
# [SCOREBOARD] BRESP OK AWADDR=0x95a0 AWLEN=238 AWSIZE=2 mode=ADDR_OUT_OF_RANGE bresp=10
# [ENV] txn 158: AWADDR=0x00d0 AWLEN=143 AWSIZE=2 mode=ADDR_NORMAL
# [SCOREBOARD] BRESP OK AWADDR=0xd0 AWLEN=143 AWSIZE=2 mode=ADDR_NORMAL bresp=0
# [ENV] txn 159: AWADDR=0x0760 AWLEN=37 AWSIZE=6 mode=ADDR_NORMAL
# [SCOREBOARD] BRESP OK AWADDR=0x760 AWLEN=37 AWSIZE=6 mode=ADDR_NORMAL bresp=10
# [ENV] txn 160: AWADDR=0x0dc4 AWLEN=20 AWSIZE=1 mode=ADDR_NORMAL
# [SCOREBOARD] BRESP OK AWADDR=0xdc4 AWLEN=20 AWSIZE=1 mode=ADDR_NORMAL bresp=10
# [ENV] txn 161: AWADDR=0x0770 AWLEN=93 AWSIZE=2 mode=ADDR_NORMAL
# [SCOREBOARD] BRESP OK AWADDR=0x770 AWLEN=93 AWSIZE=2 mode=ADDR_NORMAL bresp=0
# [ENV] txn 162: AWADDR=0x068c AWLEN=223 AWSIZE=0 mode=ADDR_NORMAL
# [SCOREBOARD] BRESP OK AWADDR=0x68c AWLEN=223 AWSIZE=0 mode=ADDR_NORMAL bresp=10
# [ENV] txn 163: AWADDR=0x0fd8 AWLEN=179 AWSIZE=3 mode=ADDR_NEAR_BOUNDARY
# [SCOREBOARD] BRESP OK AWADDR=0xfd8 AWLEN=179 AWSIZE=3 mode=ADDR_NEAR_BOUNDARY bresp=10
# [ENV] txn 164: AWADDR=0x0fd4 AWLEN=27 AWSIZE=2 mode=ADDR_NEAR_BOUNDARY
# [SCOREBOARD] BRESP OK AWADDR=0xfd4 AWLEN=27 AWSIZE=2 mode=ADDR_NEAR_BOUNDARY bresp=10
# [ENV] txn 165: AWADDR=0x0fc0 AWLEN=145 AWSIZE=7 mode=ADDR_NEAR_BOUNDARY
# [SCOREBOARD] BRESP OK AWADDR=0xfc0 AWLEN=145 AWSIZE=7 mode=ADDR_NEAR_BOUNDARY bresp=10
# [ENV] txn 166: AWADDR=0x01d4 AWLEN=107 AWSIZE=6 mode=ADDR_NORMAL
# [SCOREBOARD] BRESP OK AWADDR=0x1d4 AWLEN=107 AWSIZE=6 mode=ADDR_NORMAL bresp=10
# [ENV] txn 167: AWADDR=0x1085 AWLEN=99 AWSIZE=6 mode=ADDR_UNALIGNED
# [SCOREBOARD] BRESP OK AWADDR=0x1085 AWLEN=99 AWSIZE=6 mode=ADDR_UNALIGNED bresp=10
# [ENV] txn 168: AWADDR=0x6e68 AWLEN=21 AWSIZE=2 mode=ADDR_OUT_OF_RANGE
# [SCOREBOARD] BRESP OK AWADDR=0x6e68 AWLEN=21 AWSIZE=2 mode=ADDR_OUT_OF_RANGE bresp=10
# [ENV] txn 169: AWADDR=0x0fa8 AWLEN=137 AWSIZE=2 mode=ADDR_NEAR_BOUNDARY
# [SCOREBOARD] BRESP OK AWADDR=0xfa8 AWLEN=137 AWSIZE=2 mode=ADDR_NEAR_BOUNDARY bresp=10
# [ENV] txn 170: AWADDR=0x09e8 AWLEN=48 AWSIZE=1 mode=ADDR_NORMAL
# [SCOREBOARD] BRESP OK AWADDR=0x9e8 AWLEN=48 AWSIZE=1 mode=ADDR_NORMAL bresp=10
# [ENV] txn 171: AWADDR=0x0fd8 AWLEN=235 AWSIZE=2 mode=ADDR_NEAR_BOUNDARY
# [SCOREBOARD] BRESP OK AWADDR=0xfd8 AWLEN=235 AWSIZE=2 mode=ADDR_NEAR_BOUNDARY bresp=10
# [ENV] txn 172: AWADDR=0x0328 AWLEN=194 AWSIZE=2 mode=ADDR_NORMAL
# [SCOREBOARD] BRESP OK AWADDR=0x328 AWLEN=194 AWSIZE=2 mode=ADDR_NORMAL bresp=0
# [ENV] txn 173: AWADDR=0x0404 AWLEN=219 AWSIZE=0 mode=ADDR_NORMAL
# [SCOREBOARD] BRESP OK AWADDR=0x404 AWLEN=219 AWSIZE=0 mode=ADDR_NORMAL bresp=10
# [ENV] txn 174: AWADDR=0x0ff4 AWLEN=241 AWSIZE=2 mode=ADDR_NEAR_BOUNDARY
# [SCOREBOARD] BRESP OK AWADDR=0xff4 AWLEN=241 AWSIZE=2 mode=ADDR_NEAR_BOUNDARY bresp=10
# [ENV] txn 175: AWADDR=0x0138 AWLEN=27 AWSIZE=0 mode=ADDR_NORMAL
# [SCOREBOARD] BRESP OK AWADDR=0x138 AWLEN=27 AWSIZE=0 mode=ADDR_NORMAL bresp=10
# [ENV] txn 176: AWADDR=0x0fc0 AWLEN=25 AWSIZE=2 mode=ADDR_NEAR_BOUNDARY
# [SCOREBOARD] BRESP OK AWADDR=0xfc0 AWLEN=25 AWSIZE=2 mode=ADDR_NEAR_BOUNDARY bresp=10
# [ENV] txn 177: AWADDR=0xd4a0 AWLEN=183 AWSIZE=3 mode=ADDR_OUT_OF_RANGE
# [SCOREBOARD] BRESP OK AWADDR=0xd4a0 AWLEN=183 AWSIZE=3 mode=ADDR_OUT_OF_RANGE bresp=10
# [ENV] txn 178: AWADDR=0x0ad4 AWLEN=76 AWSIZE=2 mode=ADDR_NORMAL
# [SCOREBOARD] BRESP OK AWADDR=0xad4 AWLEN=76 AWSIZE=2 mode=ADDR_NORMAL bresp=0
# [ENV] txn 179: AWADDR=0x0980 AWLEN=118 AWSIZE=2 mode=ADDR_NORMAL
# [SCOREBOARD] BRESP OK AWADDR=0x980 AWLEN=118 AWSIZE=2 mode=ADDR_NORMAL bresp=0
# [ENV] txn 180: AWADDR=0x0fd8 AWLEN=65 AWSIZE=2 mode=ADDR_NEAR_BOUNDARY
# [SCOREBOARD] BRESP OK AWADDR=0xfd8 AWLEN=65 AWSIZE=2 mode=ADDR_NEAR_BOUNDARY bresp=10
# [ENV] txn 181: AWADDR=0x0fd8 AWLEN=90 AWSIZE=6 mode=ADDR_NEAR_BOUNDARY
# [SCOREBOARD] BRESP OK AWADDR=0xfd8 AWLEN=90 AWSIZE=6 mode=ADDR_NEAR_BOUNDARY bresp=10
# [ENV] txn 182: AWADDR=0x0a34 AWLEN=114 AWSIZE=3 mode=ADDR_NORMAL
# [SCOREBOARD] BRESP OK AWADDR=0xa34 AWLEN=114 AWSIZE=3 mode=ADDR_NORMAL bresp=10
# [ENV] txn 183: AWADDR=0x0294 AWLEN=29 AWSIZE=1 mode=ADDR_NORMAL
# [SCOREBOARD] BRESP OK AWADDR=0x294 AWLEN=29 AWSIZE=1 mode=ADDR_NORMAL bresp=10
# [ENV] txn 184: AWADDR=0x02f0 AWLEN=231 AWSIZE=4 mode=ADDR_NORMAL
# [SCOREBOARD] BRESP OK AWADDR=0x2f0 AWLEN=231 AWSIZE=4 mode=ADDR_NORMAL bresp=10
# [ENV] txn 185: AWADDR=0x0530 AWLEN=222 AWSIZE=2 mode=ADDR_NORMAL
# [SCOREBOARD] BRESP OK AWADDR=0x530 AWLEN=222 AWSIZE=2 mode=ADDR_NORMAL bresp=0
# [ENV] txn 186: AWADDR=0x8033 AWLEN=28 AWSIZE=1 mode=ADDR_UNALIGNED
# [SCOREBOARD] BRESP OK AWADDR=0x8033 AWLEN=28 AWSIZE=1 mode=ADDR_UNALIGNED bresp=10
# [ENV] txn 187: AWADDR=0x0bd0 AWLEN=0 AWSIZE=3 mode=ADDR_NORMAL
# [SCOREBOARD] BRESP OK AWADDR=0xbd0 AWLEN=0 AWSIZE=3 mode=ADDR_NORMAL bresp=10
# [ENV] txn 188: AWADDR=0xf0bc AWLEN=167 AWSIZE=2 mode=ADDR_OUT_OF_RANGE
# [SCOREBOARD] BRESP OK AWADDR=0xf0bc AWLEN=167 AWSIZE=2 mode=ADDR_OUT_OF_RANGE bresp=10
# [ENV] txn 189: AWADDR=0x0dd8 AWLEN=228 AWSIZE=4 mode=ADDR_NORMAL
# [SCOREBOARD] BRESP OK AWADDR=0xdd8 AWLEN=228 AWSIZE=4 mode=ADDR_NORMAL bresp=10
# [ENV] txn 190: AWADDR=0x0fc8 AWLEN=7 AWSIZE=2 mode=ADDR_NEAR_BOUNDARY
# [SCOREBOARD] BRESP OK AWADDR=0xfc8 AWLEN=7 AWSIZE=2 mode=ADDR_NEAR_BOUNDARY bresp=0
# [ENV] txn 191: AWADDR=0x0fa8 AWLEN=234 AWSIZE=1 mode=ADDR_NEAR_BOUNDARY
# [SCOREBOARD] BRESP OK AWADDR=0xfa8 AWLEN=234 AWSIZE=1 mode=ADDR_NEAR_BOUNDARY bresp=10
# [ENV] txn 192: AWADDR=0x0ff4 AWLEN=8 AWSIZE=7 mode=ADDR_NEAR_BOUNDARY
# [SCOREBOARD] BRESP OK AWADDR=0xff4 AWLEN=8 AWSIZE=7 mode=ADDR_NEAR_BOUNDARY bresp=10
# [ENV] txn 193: AWADDR=0x065c AWLEN=47 AWSIZE=4 mode=ADDR_NORMAL
# [SCOREBOARD] BRESP OK AWADDR=0x65c AWLEN=47 AWSIZE=4 mode=ADDR_NORMAL bresp=10
# [ENV] txn 194: AWADDR=0x0298 AWLEN=16 AWSIZE=7 mode=ADDR_NORMAL
# [SCOREBOARD] BRESP OK AWADDR=0x298 AWLEN=16 AWSIZE=7 mode=ADDR_NORMAL bresp=10
# [ENV] txn 195: AWADDR=0x0814 AWLEN=249 AWSIZE=2 mode=ADDR_NORMAL
# [SCOREBOARD] BRESP OK AWADDR=0x814 AWLEN=249 AWSIZE=2 mode=ADDR_NORMAL bresp=0
# [ENV] txn 196: AWADDR=0x0fac AWLEN=189 AWSIZE=2 mode=ADDR_NEAR_BOUNDARY
# [SCOREBOARD] BRESP OK AWADDR=0xfac AWLEN=189 AWSIZE=2 mode=ADDR_NEAR_BOUNDARY bresp=10
# [ENV] txn 197: AWADDR=0x0e68 AWLEN=198 AWSIZE=2 mode=ADDR_NORMAL
# [SCOREBOARD] BRESP OK AWADDR=0xe68 AWLEN=198 AWSIZE=2 mode=ADDR_NORMAL bresp=10
# [ENV] txn 198: AWADDR=0x00f4 AWLEN=54 AWSIZE=2 mode=ADDR_NORMAL
# [SCOREBOARD] BRESP OK AWADDR=0xf4 AWLEN=54 AWSIZE=2 mode=ADDR_NORMAL bresp=0
# [ENV] txn 199: AWADDR=0x52f2 AWLEN=222 AWSIZE=5 mode=ADDR_UNALIGNED
# [SCOREBOARD] BRESP OK AWADDR=0x52f2 AWLEN=222 AWSIZE=5 mode=ADDR_UNALIGNED bresp=10
# 
# ====================================================
# [ENV] All 200 transactions completed
# ====================================================
# =================================================
#   SCOREBOARD SUMMARY
#   Transactions checked : 200
#   BRESP errors         : 0
#   Data errors          : 0
# =================================================
# [ENV] Burst functional coverage = 100.00%
# [ENV] Beat functional coverage = 100.00%
# [ENV] Combined functional coverage = 100.00%
# [TB_TOP] Test complete.
