# AXI4-Compliant Memory-Mapped Slave — Design & Verification Notes

## 1. System Overview

Two-module DUT:

- **`axi4_slave`** — protocol engine. Decodes AW/W/B (write) and AR/R (read) channels, runs burst FSMs, enforces 4KB-boundary and range checks, drives memory control signals.
- **`axi4_memory`** — synchronous single-port RAM. 1024 × 32-bit words = 4KB total. Word-addressable only (byte address >> 2).

No arbitration, no interconnect, no outstanding-transaction support — single AXI master (your TB) talks directly to one slave. This is a **subset** of full AXI4 (see §5, unsupported features).

## 2. Interface Signals (fixed widths in this design)

| Group | Signals | Width | Direction (slave) |
|---|---|---|---|
| Global | ACLK, ARESETn | 1 | in, in (active-LOW async/sync reset — confirm in RTL) |
| AW | AWADDR, AWLEN[7:0], AWSIZE[2:0], AWVALID/AWREADY | ADDR=16b* | in/in/in/in-out |
| W | WDATA[31:0], WLAST, WVALID/WREADY | 32b | in |
| B | BRESP[1:0], BVALID/BREADY | 2b | out |
| AR | ARADDR, ARLEN[7:0], ARSIZE[2:0], ARVALID/ARREADY | ADDR** | in |
| R | RDATA[31:0], RRESP[1:0], RLAST, RVALID/RREADY | 32b/2b | out |

\* Spec table header says AWADDR[15:0]/16 in one place but body text says ARADDR[31:0]/16 — **inconsistency in the source spec**. With a 4KB (12-bit) memory window, only `ADDR[11:0]` is meaningfully decoded regardless of bus width; clarify actual RTL port width before writing the interface/agent — don't assume, check the `.sv` port list.
\** Same width ambiguity as AWADDR — verify against RTL.

- No WSTRB in the signal table — **byte strobes are apparently NOT implemented**, even though the general AXI4 description (page 1) advertises byte-strobe support as a protocol feature. This design likely only supports full-word (AWSIZE=3'b010, 4-byte) writes. Confirm in RTL; if WSTRB is absent, partial-word writes are impossible and any AWSIZE/WSTRB coverage bins for sub-word access are **not applicable / excluded**.
- No AWID/ARID/BID/RID, no AWBURST/ARBURST (burst type: FIXED/INCR/WRAP) in the given table — burst type may be hardwired to INCR only. Verify; if BURST type isn't a port, WRAP/FIXED burst-type coverage is out of scope.
- AWREADY/ARREADY are described as tied HIGH by default "to improve timing efficiency" — i.e., the slave is always ready to accept address+control (single-cycle AW/AR phase, no backpressure on those two channels). This matters for handshake-order coverage (VALID-before-READY is structurally forced here since READY is already high).

## 3. Protocol Handshake Rule (applies to all 5 channels)

Transfer occurs only when **VALID && READY** are both HIGH on the same clock edge.
- Source must not wait for READY before asserting VALID... but is also not required to assert VALID until data is ready — however once VALID is asserted it **must stay HIGH until the transfer completes** (no de-asserting VALID before the matching READY arrives — classic AXI illegal-sequence check).
- Three legal handshake timing relationships: VALID-before-READY, READY-before-VALID, VALID-with-READY simultaneously.
- **Verification-critical rule**: VALID must never be *retracted* or have its payload changed while asserted and unacknowledged. This is a standard AXI protocol assertion to implement (`AXI4_VALID_STABLE`).

## 4. Write Channel FSM Behavior

1. **W_IDLE / Address phase**: on `AWVALID && AWREADY` (AWREADY is default-1), slave latches AWADDR, AWLEN, AWSIZE. Moves to data phase.
2. **Data phase**: WREADY asserted after WVALID is observed high (not necessarily combinational default-1 like AW — check exact timing in RTL, it says "sets WREADY after recognizing WVALID is high", implying **1-cycle latency**, i.e. WREADY is NOT default-high on W channel, unlike AW/AR). This is an important asymmetry to verify: AW/AR are zero-latency ready, W is not.
   - Per beat: if `(addr>>2) < 1024` AND burst does not cross 4KB boundary → `mem_we=1`, data written.
   - If out of range / boundary violation → no write, error response latched for later.
   - WLAST must be asserted by master on final beat; total beats = `AWLEN + 1`.
3. **Response phase**: after WLAST beat consumed → WREADY deasserted, BVALID=1, BRESP = OKAY or SLVERR (EXOKAY/DECERR are defined in the RESP encoding but **not generated by this design** — only 2 of 4 responses are reachable → mark EXOKAY/DECERR bins as excluded/unreachable in coverage).
4. On `BVALID && BREADY` → FSM returns to W_IDLE.

**Pitfall to check in RTL/TB**: what happens if boundary violation occurs mid-burst on beat N (not beat 0)? Does the whole burst get SLVERR, or does it write beats 0..N-1 and only fail from N onward? Spec text is ambiguous — this is a question to resolve with the DUT author or by RTL inspection before writing the scoreboard/checker, since it changes expected-memory-content modeling significantly.

## 5. Read Channel FSM Behavior

1. **R_ADDR**: on `ARVALID && ARREADY` (ARREADY default-1), latch ARADDR/ARLEN/ARSIZE, validate range+boundary immediately.
2. **R_DATA**: each cycle, if access valid: read `mem_rdata`, drive RVALID=1, RDATA=value, RRESP=OKAY, same cycle (combinational/registered read — confirm memory read latency: "synchronous" RAM implies 1-cycle read latency, meaning RDATA in R_DATA is technically the data addressed by the *previous* cycle's `mem_addr` — verify address/data phase pipelining doesn't cause an off-by-one on the first beat).
3. RLAST=1 on the final of `ARLEN+1` beats.
4. Beat advances only on `RVALID && RREADY`.
5. **TB-side rule explicitly called out in spec**: after sampling RVALID de-assertion, the TB must de-assert RREADY the very next cycle (not same cycle) — an explicit sequencing requirement for the driver/monitor.
6. **Error path**: out-of-range or boundary-crossing read → RDATA=0, RRESP=SLVERR, RLAST=1, single-beat error response (whole burst reduced to one error beat, not continued for remaining beats — confirm this against RTL, since it differs from the write path where the ambiguity is about mid-burst failure).

## 6. Address / Boundary Rules (core thing to verify)

- **4KB boundary check**: `AWADDR`/`ARADDR` + burst extent must not cross a 4KB (0x1000) boundary — mandated by AXI4 itself, independent of this design's total memory being exactly 4KB. Because the whole memory *is* 4KB, in practice this reduces to "does the burst run past the end of the single memory region," but conceptually it's still the generic AXI 4KB-boundary rule and should be tested as such (e.g., a start address near 0xFF8 with a long burst).
- **Range check**: `(addr >> 2) < 1024` (MEMORY_DEPTH parameter). Byte address is converted to word address by `>>2` — i.e. hardware assumes **word-aligned, full-word (4-byte) accesses only**.
- **AWSIZE/ARSIZE is effectively fixed** at `3'b010` (4 bytes) since the datapath is 32-bit only. The spec explicitly flags this as an open question ("it needs to be fixed at what?") — meaning: verify what the RTL actually does if AWSIZE/ARSIZE ≠ 2 is driven. Likely candidates: (a) RTL ignores AWSIZE/ARSIZE entirely and always transfers 4 bytes (spec/DUT mismatch — a real bug to find), or (b) RTL has an implicit assumption/assertion that AWSIZE==2. **This is a prime target for a directed test + assertion**: drive AWSIZE/ARSIZE = 0,1,3..7 and observe actual behavior.
- Unaligned addresses (`addr[1:0] != 0`) — behavior undefined by spec text ("may lead to invalid memory operations or ignored transactions"). Needs a directed test to characterize actual DUT behavior and either assert it's rejected (SLVERR) or document it as a known limitation.

## 7. Memory Model (`axi4_memory`)

- Word-addressable, depth 1024, 32-bit width, single port, synchronous.
- `mem_en`, `mem_we` control read/write; `mem_we=1` → write, else read (per spec text "vice versa" — confirm read requires `mem_en=1 && mem_we=0`, not just `mem_en`).
- Single port ⇒ **no simultaneous read+write**; slave FSM must serialize AW/W and AR/R access to memory — good candidate for a structural assertion (mem_we and a concurrent read request never overlap) if the FSM doesn't already make this impossible by construction.

## 8. Response Encoding Actually Reachable

| RESP | Meaning | Generated by this design? |
|---|---|---|
| 2'b00 OKAY | success | Yes |
| 2'b01 EXOKAY | exclusive access success | No (no exclusive access support) |
| 2'b10 SLVERR | slave error (range/boundary) | Yes |
| 2'b11 DECERR | decode error | No (no address decoder / no multiple slaves) |

Functional coverage on BRESP/RRESP should have 4 bins but **only 2 are legally hittable** — exclude EXOKAY/DECERR with written justification per the deliverable requirements (page 11: "Provide a clear and justified report of uncovered bins").

## 9. Key Verification / Testbench Requirements (from spec, project goals)

Architecture mandated:
- Class-based transaction (`axi4_packet`) encapsulating AWADDR/AWLEN/AWSIZE/WDATA/WSTRB(if present)/ARADDR/ARLEN/ARSIZE, response fields, etc.
- Constrained-random stimulus generator, driver, monitor, checker/scoreboard, functional coverage collector — standard CDV layered environment.
- SV `interface` with `modport`s for master/slave/monitor signal direction.
- Concurrent SVA assertions for handshake/protocol rules (VALID stability, READY behavior, RLAST/WLAST correctness, no X/Z on VALID-qualified signals, etc.).

Coverage goals (deliverable-mandated):
- 100% functional coverage (burst lengths, AxSIZE values driven, address regions incl. near-boundary, both write & read directions, both response types) unless justified exclusion.
- 100% code coverage: line, toggle, branch, condition/expression.
- 100% assertion coverage.
- Documented, justified list of any unreachable/excluded bins (EXOKAY, DECERR, non-word AxSIZE if RTL hard-ignores it, etc.).

## 10. Test-Case Checklist to Derive From This Spec

- Legal single-beat and max-length burst (AWLEN=255) write/read, in-bounds.
- Burst that starts legally but would cross the 4KB boundary → expect SLVERR (write) — **clarify partial-write-then-error vs. full-suppress behavior with RTL owner before writing checker**.
- Read burst crossing boundary → single SLVERR beat with RLAST=1, RDATA=0.
- Address at exact last valid word (offset 0xFFC) single-beat access — boundary edge case.
- Out-of-range address (>4KB) both directions.
- AWSIZE/ARSIZE ≠ 3'b010 driven — characterize actual RTL response (bug-hunting case).
- Back-to-back transactions (write immediately followed by read of same address) — data-integrity/ordering check, single memory port.
- BREADY/RREADY held low after VALID asserted — verify master-side backpressure doesn't corrupt DUT state (VALID must remain stable while waiting).
- VALID de-asserted early (illegal on master side) — assertion should fire in TB driver's own protocol-checker, or in monitor if used to catch a misbehaving test.
- Reset (ARESETn) assertion mid-transaction — verify FSM returns to idle safely, no dangling VALID left asserted.
- WREADY latency check: confirm 1-cycle delay after WVALID vs. AWREADY/ARREADY 0-cycle default, since this asymmetry is explicitly stated in the spec and easy to get wrong in the driver's expected-timing model.

## 11. Open Items to Confirm Against RTL (don't assume from spec text alone)

1. Actual bit-width of AWADDR/ARADDR ports (16 vs 32 — spec self-contradicts).
2. Presence/absence of WSTRB.
3. Presence/absence of AWID/ARID/BID/RID and AxBURST.
4. Exact behavior on mid-burst boundary violation (write path).
5. Exact behavior when AWSIZE/ARSIZE ≠ 2.
6. mem_en/mem_we exact truth table (is `mem_en` required for reads, or does `mem_we=0` alone imply read regardless of `mem_en`?).
7. ARESETn: synchronous or asynchronous reset in the FSM/memory.

---

## 12. RTL Bug Report — `axi_memory.v` / `axi4.v` (as-uploaded, treat as buggy reference)

DUT does NOT match the spec. Confirmed by code reading, not simulation — recommend directed tests below to prove each on waves.

### 12.1 CRITICAL — `axi_memory.v`: inverted reset polarity kills all memory access

```verilog
always @(posedge clk) begin
    if (rst_n)                       // BUG: rst_n is active-LOW, this branch is NORMAL OPERATION
        mem_rdata <= 0;
    else if (mem_en) begin           // only reachable while rst_n==0 (i.e. reset asserted)
        if (mem_we)
            memory[mem_addr] <= mem_wdata;
        else
            mem_rdata <= memory[mem_addr-1];
    end
end
```
- `if (rst_n)` should be `if (!rst_n)`. As written, every cycle that the design is **out of reset**, `mem_rdata` is forced to 0 and the `mem_en`-gated read/write branch is dead code.
- The read/write branch is only reachable while `rst_n == 0`, but `axi4.v` only drives `mem_en`/`mem_we` non-zero in its `else` branch of `if (!ARESETn)`, i.e. only while `ARESETn == 1` (out of reset). So `mem_en` is never asserted at the one moment the memory module would act on it.
- **Net effect: writes never reach the `memory[]` array, and `mem_rdata` is permanently 0.** This alone fails every write-then-read data-integrity check in the testbench. Fix is a single `!`; flag this as the first thing to hand back if this is meant to be a "find the bug" exercise — everything downstream (data checks) is unverifiable until this is fixed.
- Directed test to expose it: single write beat then single read beat to same address, check `RDATA == WDATA`. Will read 0.

### 12.2 `axi_memory.v`: off-by-one on read address

```verilog
mem_rdata <= memory[mem_addr-1];   // should be memory[mem_addr]
```
- Independent of §12.1. Even after fixing the reset polarity, every read returns the word at `mem_addr-1`, not `mem_addr`.
- `mem_addr` is unsigned (`[ADDR_WIDTH-1:0]`, no sign bit); at `mem_addr==0` this wraps to `{ADDR_WIDTH{1'b1}}` = 1023, silently reading the last word of memory instead of the first — an aliasing bug, not an out-of-range access (no X's, so a naive checker comparing against expected data will just see a wrong-but-plausible value; a checker comparing full 32-bit expected content will still catch it, but be aware a coverage/toggle check alone won't).
- Directed test: write distinct known values to N sequential words, read them back individually, compare per-address. Confirms with an address-offset pattern in the mismatch (every read = previous address's data).

### 12.3 `axi4.v`: read-data pipeline/latency mismatch with memory module

- `axi4_memory` read path is registered (1-cycle latency: `mem_en`+`mem_addr` sampled at edge N ⇒ `mem_rdata` valid at edge N+1).
- In `axi4.v`, `R_ADDR` state sets `mem_en<=1; mem_addr<=...` (effective next cycle), and unconditionally moves to `R_DATA` the following cycle. `R_DATA`'s first-beat action reads `mem_rdata` in the **same cycle** the memory's registered output is only just becoming valid from the address issued one cycle prior — trace it exactly against your RTL simulation, but the state sequencing gives the memory only one cycle from address-issue to data-consumption with no explicit wait state inserted for the registered-RAM latency. Likely produces a stale/garbage value on the first beat of every read burst (masked right now by §12.1 forcing `mem_rdata` to 0 anyway).
- On subsequent beats, `R_DATA` re-issues `mem_addr`/`mem_en` for the next beat in the same cycle it also samples `mem_rdata` for the current beat — same one-cycle-early consumption pattern repeats each beat, not just beat 0.
- Needs a wait/skid state (or address issued one cycle earlier, e.g. during `R_ADDR`→`R_DATA` transition with an extra pipeline cycle before RVALID) to be latency-correct.
- Directed test: after fixing §12.1/§12.2, do a burst read and check first-beat data specifically — expect it to lag by one address/one cycle relative to a correct model.

### 12.4 `axi4.v`: 4KB boundary-cross calculation is off by `(bytes_per_beat − 1)`

```verilog
assign write_boundary_cross = ((write_addr & 12'hFFF) + (write_burst_len << write_size)) > 12'hFFF;
```
- Correct last-byte offset within the burst is `(AWLEN+1)*(1<<AWSIZE) - 1`. RTL computes `AWLEN*(1<<AWSIZE)` — missing both the "+1 beat" and the "-1 last-byte" terms, which happen to differ by exactly `(1<<AWSIZE) - 1`.
- Result: the check **under-counts the burst's byte span by `(bytes_per_beat − 1)`**, so a burst that actually crosses the 4KB boundary can be misclassified as legal (false negative) near the edge. Same bug mirrored in `read_boundary_cross`.
- Since memory depth is exactly 4KB, per-beat range check (`write_addr_valid`/`read_addr_valid`, re-evaluated every beat as the address increments) still blocks the RTL from indexing outside the array — so this is not a memory-corruption/array-overrun bug, but it **is** a protocol-response-correctness bug: bursts that should get `SLVERR` for crossing the boundary may instead complete some beats as `OKAY` before the range check catches the overrun on a later beat, or the boundary-only case (crossing but nothing yet out of the physically-instantiated 4KB) is missed entirely.
- Directed test: pick `AWADDR` a few words below `0xFFF`, size=word (`AWSIZE=2`), `AWLEN` large enough that `(AWLEN+1)*4` should cross `0x1000` by 1–2 words but `AWLEN*4` alone would not. Compare RTL's boundary flag / BRESP against a reference model using the correct formula.

### 12.5 `axi4.v`: write response reflects only the last beat, not the whole burst

- `BRESP` is computed once, at the point `WLAST || write_burst_cnt==0` fires, using **that beat's** `write_addr_valid`/`write_boundary_cross` — not an OR/latch of the validity across all beats in the burst.
- If an early beat in the burst is invalid (silently dropped, no memory write) but the final beat's address happens to be valid, the FSM reports `BRESP = OKAY` even though part of the burst was dropped. This is the ambiguity flagged in §4 of this document — the RTL resolves it, but resolves it in a way that hides partial-write failures from the master.
- Needs an accumulated "any-beat-invalid" sticky flag (set on first invalid beat, held through `W_RESP`) if partial-burst SLVERR reporting is intended; as written it's a data-integrity/observability bug — scoreboard should model this exact (buggy) behavior to match RTL, or flag it as a bug to be fixed depending on project intent.
- Directed test: multi-beat burst where beat 0 is out-of-range/boundary-crossing but the final beat (after address increment) is back in range (only possible via wraparound of the `write_addr` register — check whether this is even reachable given 16-bit `ADDR_WIDTH`; if not reachable this specific case may be moot, but the general principle — sticky vs. last-beat-only error — still applies whenever any middle beat is invalid while the last is valid, e.g. burst that re-enters range is unlikely here, so more realistically: confirm whether an invalid **first** beat with a **valid final beat address** is even constructible; if not, this bug degenerates to "an early write silently fails with no error reported at all," which is still worth a targeted test — write burst that starts in-range and only the *last* beat crosses out — that direction is straightforwardly constructible and demonstrates the opposite failure: one bad beat correctly produces SLVERR, but n-1 good beats before it were already (incorrectly, per spec ambiguity) written or dropped depending on the per-beat check — confirm actual behavior against your scoreboard model).

### 12.6 `axi4.v`: read error path does not terminate the burst early (spec mismatch)

- Spec text (§5, page 9): out-of-range/boundary-crossing read ⇒ single error beat, `RLAST=1` immediately.
- RTL instead continues cycling through all `ARLEN+1` beats regardless of validity; `RRESP=SLVERR` and `RDATA=0` are driven per-beat for as many beats as are invalid, but `RLAST` only asserts when `read_burst_cnt==0` (i.e., the originally-requested last beat), not immediately on first error.
- Decide (with the spec owner / for your own project write-up) which behavior is "correct" and write the scoreboard/assertions against that decision — but document this as a spec/RTL mismatch either way.

### 12.7 `axi4.v`: no byte-lane handling for `AWSIZE`/`ARSIZE` ≠ word (no WSTRB)

- `AWSIZE`/`ARSIZE` only affect the address increment stride (`1 << size`); the full 32-bit `WDATA` is always written to `memory[mem_addr]` and the full 32-bit `mem_rdata` is always returned, with no byte-strobe/byte-lane masking (no `WSTRB` port exists).
- A master driving `AWSIZE < 2` (sub-word transfer) will still overwrite the entire word at that address — silent data corruption of the untouched bytes relative to real AXI4 semantics. This confirms the open question raised in §6/§11 of this document: the RTL does **not** reject or correctly handle non-word `AWSIZE`/`ARSIZE`, it silently mishandles it.
- Directed/bug-hunting test: drive `AWSIZE=1` (halfword) or `0` (byte) and check whether adjacent, previously-written bytes in the same word get clobbered. Expect: yes.

### 12.8 Minor / code-quality

- `write_boundary_cross`, `read_boundary_cross`, `write_addr_valid`, `read_addr_valid` are used via `assign` without an explicit `wire` declaration — relies on Verilog implicit net declaration (1-bit default). Works functionally but should be explicitly declared; implicit nets can silently mask width/typo bugs (e.g., a misspelled signal name auto-creates a new 1-bit wire instead of an elaboration error). Recommend `` `default_nettype none `` in the actual RTL to catch this class of bug at compile time — flag as an observation, not a functional bug, but worth a code-review comment in your deliverable.

### 12.9 Priority order for bring-up / debug

1. §12.1 (reset polarity) — blocks *everything*, fix/confirm first.
2. §12.2 (address-1 off-by-one) — blocks all data-integrity checks even after #1.
3. §12.3 (read latency) — needed before read-data checks are trustworthy.
4. §12.4–12.7 — protocol-correctness/error-response bugs, exercise with the directed boundary/size tests in §10 of this document once basic read/write is confirmed functional.
